!Keysight Technologies,N5222B,MY58421855,A.13.65.03
!Date: Tuesday, September 29, 2020 17:05:03
!Correction: S11(Full 1 Port(1)) 
!S1P File: Measurement: S11:
# Hz S  RI   R 50
10000000 0.00078274251 -0.00075600308
39950000 -0.00024316006 -0.00029953985
69900000 -0.00022979717 -0.0011936825
99850000 0.00037831947 7.7646191e-006
129800000 -0.0010030087 0.00104017
159750000 -0.0016876574 0.00018585955
189700000 -0.0012215428 0.00028979944
219650000 -0.0018469697 0.00048101813
249600000 -0.0023967412 -0.00058521173
279550000 -0.00076506578 -0.00065616029
309500000 -0.00045570207 0.00058711041
339450000 -0.0007469189 0.001424456
369400000 -0.0010889228 0.0016321314
399350000 -0.0011903446 0.0030996774
429300000 -0.0028496641 0.0031031759
459250000 -0.0030116816 0.0021513838
489200000 -0.0026333234 0.0023510687
519150000 -0.0027446055 0.0022821669
549100000 -0.0026139491 0.0017018514
579050000 -0.0010924597 0.0021968926
609000000 -0.0009409698 0.0037947465
638950000 -0.0016554591 0.0042978148
668900000 -0.0015897355 0.0047267596
698850000 -0.0027314271 0.0053637954
728800000 -0.0031566503 0.0040902258
758750000 -0.0024133765 0.0038703829
788700000 -0.0014442152 0.0048885816
818650000 -0.0016483149 0.0049886317
848600000 -0.00094761467 0.0054643862
878550000 -0.001223783 0.0070850509
908500000 -0.0026550465 0.00712679
938450000 -0.002676503 0.0064901267
968400000 -0.0016414787 0.0067465408
998350000 -0.0024462701 0.0078042694
1028300000 -0.0029268172 0.0068380707
1058250000 -0.001675481 0.0060371975
1088200000 -0.0013256771 0.0074177566
1118150000 -0.0010255176 0.0072599566
1148100000 0.00026522606 0.0076057678
1178050000 0.00024723157 0.0095588239
1208000000 -0.0010243692 0.010437277
1237950000 -0.0011334446 0.0096526537
1267900000 -0.0010143149 0.010187655
1297850000 -0.0019308185 0.0098143015
1327800000 -0.001232716 0.0089437915
1357750000 0.00028370536 0.0092370687
1387700000 -0.00028614662 0.01024079
1417650000 -0.00010080629 0.0096987849
1447600000 0.0013297038 0.010098879
1477550000 0.0010247412 0.011338333
1507500000 0.00037447832 0.011505852
1537450000 0.0012952317 0.011002854
1567400000 0.0016064693 0.012826052
1597350000 0.00048029632 0.012928901
1627300000 0.00052603043 0.011593836
1657250000 0.0019685586 0.011785577
1687200000 0.0021785439 0.012321289
1717150000 0.0019810146 0.011941939
1747100000 0.0028862753 0.012336021
1777050000 0.0028592118 0.013524937
1807000000 0.0023895563 0.013104517
1836950000 0.003465703 0.013130881
1866900000 0.0035139685 0.013399851
1896850000 0.0036572518 0.013434617
1926800000 0.0042262557 0.013708672
1956750000 0.0043263799 0.014188581
1986700000 0.0037296535 0.013919218
2016650000 0.0051436154 0.013449936
2046600000 0.0052766954 0.014510876
2076550000 0.0051436056 0.014685466
2106500000 0.0058953338 0.014099399
2136450000 0.0067095836 0.015133591
2166400000 0.0058952593 0.015756186
2196350000 0.0056458153 0.014304185
2226300000 0.0072199758 0.014190661
2256250000 0.0077392356 0.015365487
2286200000 0.0070036212 0.014822114
2316150000 0.0085860044 0.014219324
2346100000 0.0093962308 0.015524098
2376050000 0.0088663744 0.015932098
2406000000 0.008480493 0.01511318
2435950000 0.0098555749 0.015703995
2465900000 0.0092193093 0.016601503
2495850000 0.0082308566 0.015277582
2525800000 0.009878831 0.013984542
2555750000 0.010781005 0.015613107
2585700000 0.010129578 0.015562296
2615650000 0.011203327 0.013827351
2645600000 0.012697114 0.015015812
2675550000 0.012074833 0.015962882
2705500000 0.01149644 0.014620019
2735450000 0.01301478 0.01473185
2765400000 0.012849413 0.016120577
2795350000 0.012273687 0.015071667
2825300000 0.01325902 0.013938121
2855250000 0.014145945 0.014648939
2885200000 0.013143457 0.014918805
2915150000 0.014031238 0.013508504
2945100000 0.015788099 0.013942728
2975050000 0.01528661 0.014641271
3005000000 0.014611845 0.013952492
3034950000 0.015498319 0.013366322
3064900000 0.016039336 0.013969858
3094850000 0.016213641 0.013046846
3124800000 0.017091759 0.012924046
3154750000 0.017215297 0.013553071
3184700000 0.016765963 0.01331502
3214650000 0.017175177 0.01262865
3244600000 0.017764872 0.012437531
3274550000 0.017037524 0.012474513
3304500000 0.01783332 0.011339134
3334450000 0.01899551 0.01139449
3364400000 0.018325133 0.01218972
3394350000 0.017977631 0.010799616
3424300000 0.018881757 0.010231548
3454250000 0.019225942 0.0099760527
3484200000 0.019337112 0.0092426417
3514150000 0.020924229 0.008995302
3544100000 0.021270053 0.010053664
3574050000 0.019951461 0.0099885082
3604000000 0.020035645 0.0082641654
3633950000 0.020364955 0.008088124
3663900000 0.02021431 0.0077040237
3693850000 0.020353025 0.0061774673
3723800000 0.022426026 0.0061846292
3753750000 0.021751925 0.0070224456
3783700000 0.020848727 0.0052585341
3813650000 0.022370074 0.0048319283
3843600000 0.022952557 0.0054396158
3873550000 0.021623809 0.0054256651
3903500000 0.022319114 0.0039652865
3933450000 0.022503216 0.0045407708
3963400000 0.021161268 0.0041546603
3993350000 0.021494888 0.0021638067
4023300000 0.022826998 0.0020884138
4053250000 0.022155479 0.0025016339
4083200000 0.021139286 0.0010705451
4113150000 0.022615591 8.8609799e-005
4143100000 0.022714831 0.00085655251
4173050000 0.022016754 -0.00031795399
4203000000 0.022959482 -0.00097077503
4232950000 0.023006042 7.237574e-005
4262900000 0.020954557 -0.00092685479
4292850000 0.021283213 -0.0029468054
4322800000 0.022799516 -0.0032344672
4352750000 0.022297811 -0.0029719947
4382700000 0.021448744 -0.0036895308
4412650000 0.022765847 -0.00433747
4442600000 0.021882687 -0.0036707581
4472550000 0.02058571 -0.0048114886
4502500000 0.021109512 -0.0064630345
4532450000 0.021765625 -0.0066906861
4562400000 0.021253262 -0.0066314251
4592350000 0.021242369 -0.0073248153
4622300000 0.02109587 -0.0072571202
4652250000 0.019660683 -0.0081653539
4682200000 0.019930268 -0.0098549202
4712150000 0.020801418 -0.0095363418
4742100000 0.020066045 -0.0095789246
4772050000 0.019139813 -0.010564093
4802000000 0.019540263 -0.010823018
4831950000 0.018226638 -0.010674983
4861900000 0.01686864 -0.01232677
4891850000 0.018277539 -0.013782934
4921800000 0.018271031 -0.012866029
4951750000 0.017140457 -0.013511332
4981700000 0.017360641 -0.015111919
5011650000 0.017461175 -0.014157039
5041600000 0.016300716 -0.014505356
5071550000 0.016476329 -0.016345287
5101500000 0.017572489 -0.015372887
5131450000 0.014882242 -0.013787496
5161400000 0.012478271 -0.016315404
5191350000 0.013761334 -0.018622039
5221300000 0.013452318 -0.017843736
5251250000 0.011727029 -0.018869812
5281200000 0.012641258 -0.020461181
5311150000 0.013826122 -0.019142775
5341100000 0.01146638 -0.018257078
5371050000 0.010500136 -0.019984176
5401000000 0.010980666 -0.020202598
5430950000 0.0097460207 -0.019923203
5460900000 0.0080049345 -0.020940419
5490850000 0.0085194837 -0.021997247
5520800000 0.0074024857 -0.021570105
5550750000 0.0057583987 -0.02366353
5580700000 0.0075193257 -0.024566205
5610650000 0.0076753623 -0.023216181
5640600000 0.0057850112 -0.022964207
5670550000 0.0055447584 -0.02482372
5700500000 0.0051721651 -0.02362437
5730450000 0.0027002823 -0.023722766
5760400000 0.0015420499 -0.025916213
5790350000 0.002785583 -0.026812103
5820300000 0.0024250043 -0.02493375
5850250000 0.00071361824 -0.025690015
5880200000 0.00042321841 -0.026919182
5910150000 0.00019568317 -0.026288204
5940100000 -0.0014342399 -0.02669584
5970050000 -0.0018968799 -0.027971949
6000000000 -0.0017596576 -0.027374828
