!Keysight Technologies,N5222B,MY58421855,A.13.65.03
!Date: Tuesday, September 29, 2020 17:04:18
!Correction: S11(Full 1 Port(1)) 
!S1P File: Measurement: S11:
# Hz S  RI   R 50
10000000 0.99886638 -0.0039057313
39950000 0.99884897 -0.0184542
69900000 0.99934596 -0.033026423
99850000 0.9985885 -0.043573841
129800000 0.99859673 -0.056404736
159750000 0.9974094 -0.072478764
189700000 0.99638164 -0.084700242
219650000 0.99553758 -0.096401073
249600000 0.99337953 -0.1115805
279550000 0.99222249 -0.12493304
309500000 0.99026608 -0.13667171
339450000 0.98752367 -0.15038794
369400000 0.9862324 -0.16482639
399350000 0.98367614 -0.17585433
429300000 0.98068374 -0.18923466
459250000 0.97897691 -0.20299907
489200000 0.97578692 -0.21503669
519150000 0.97313511 -0.22756147
549100000 0.96877557 -0.24312884
579050000 0.96574306 -0.2559368
609000000 0.96259552 -0.26704589
638950000 0.95921642 -0.28092358
668900000 0.95431447 -0.29237658
698850000 0.95186621 -0.30389085
728800000 0.94478267 -0.31895062
758750000 0.94270176 -0.33209285
788700000 0.93839943 -0.34145537
818650000 0.93214166 -0.35565245
848600000 0.9284004 -0.36799741
878550000 0.92400539 -0.37827492
908500000 0.91772175 -0.39347836
938450000 0.9118247 -0.40725437
968400000 0.90767986 -0.41609418
998350000 0.90070325 -0.42809606
1028300000 0.89412087 -0.44252771
1058250000 0.88902432 -0.45347559
1088200000 0.88447797 -0.46342355
1118150000 0.87632835 -0.47690845
1148100000 0.86972648 -0.4881832
1178050000 0.86530292 -0.49714363
1208000000 0.85771388 -0.51010704
1237950000 0.84944767 -0.5220167
1267900000 0.84297222 -0.53184378
1297850000 0.83568573 -0.54452825
1327800000 0.82768273 -0.55585301
1357750000 0.82144547 -0.56495953
1387700000 0.81389105 -0.57529628
1417650000 0.80408096 -0.58829039
1447600000 0.7966392 -0.598171
1477550000 0.78895038 -0.60716414
1507500000 0.78007114 -0.6196726
1537450000 0.77230805 -0.62970018
1567400000 0.76556778 -0.63813323
1597350000 0.75464439 -0.64829719
1627300000 0.74492323 -0.66026062
1657250000 0.73784292 -0.67014223
1687200000 0.72947514 -0.67840815
1717150000 0.71836329 -0.68905002
1747100000 0.70967823 -0.69734961
1777050000 0.70075053 -0.70649618
1807000000 0.6892978 -0.7167545
1836950000 0.68114209 -0.72418213
1866900000 0.6717205 -0.73339903
1896850000 0.66182959 -0.74278516
1926800000 0.65239793 -0.75042051
1956750000 0.64308882 -0.75821257
1986700000 0.6315701 -0.7673173
2016650000 0.62129653 -0.77624357
2046600000 0.61101401 -0.78271663
2076550000 0.59947139 -0.7919597
2106500000 0.58822632 -0.79983032
2136450000 0.57985133 -0.80648154
2166400000 0.5673551 -0.81380695
2196350000 0.55559826 -0.82239628
2226300000 0.54661399 -0.8286714
2256250000 0.53601605 -0.83484775
2286200000 0.52258265 -0.84293097
2316150000 0.51187438 -0.848818
2346100000 0.50289339 -0.85540909
2376050000 0.49008107 -0.86127305
2406000000 0.47607937 -0.86932415
2435950000 0.46802962 -0.87297314
2465900000 0.45668051 -0.87902862
2495850000 0.44134083 -0.8873657
2525800000 0.4312492 -0.89204353
2555750000 0.42034763 -0.8963725
2585700000 0.40694833 -0.90196741
2615650000 0.39402816 -0.90791386
2645600000 0.38433841 -0.91189837
2675550000 0.37121472 -0.91547042
2705500000 0.35758796 -0.92176026
2735450000 0.34863365 -0.92608833
2765400000 0.33638316 -0.92979348
2795350000 0.32081237 -0.93496013
2825300000 0.31027773 -0.93857241
2855250000 0.29997182 -0.94200009
2885200000 0.28432801 -0.94615692
2915150000 0.27021903 -0.94933999
2945100000 0.26127037 -0.95227367
2975050000 0.24928358 -0.95587403
3005000000 0.23383464 -0.95914024
3034950000 0.22083059 -0.96222651
3064900000 0.20908336 -0.96384746
3094850000 0.19713236 -0.96670115
3124800000 0.18498708 -0.96863836
3154750000 0.17162545 -0.97036505
3184700000 0.15721738 -0.97299081
3214650000 0.14508735 -0.97521734
3244600000 0.13312131 -0.97608
3274550000 0.11988795 -0.97805029
3304500000 0.10678838 -0.97920775
3334450000 0.095267653 -0.98068875
3364400000 0.082110226 -0.97983897
3394350000 0.067607097 -0.98166531
3424300000 0.057373479 -0.98301142
3454250000 0.04464528 -0.98333108
3484200000 0.028605914 -0.98213601
3514150000 0.018224899 -0.98418903
3544100000 0.0084013864 -0.98356277
3574050000 -0.0077187736 -0.98344028
3604000000 -0.021604259 -0.98360723
3633950000 -0.032369275 -0.98338091
3663900000 -0.046713788 -0.98265797
3693850000 -0.059010476 -0.98219907
3723800000 -0.068801761 -0.98207659
3753750000 -0.081860304 -0.97924
3783700000 -0.099437445 -0.9783842
3813650000 -0.10924302 -0.97788322
3843600000 -0.12038731 -0.97614741
3873550000 -0.13497142 -0.97345036
3903500000 -0.14741775 -0.97112763
3933450000 -0.15870793 -0.97014028
3963400000 -0.17357473 -0.96663314
3993350000 -0.1862241 -0.96510899
4023300000 -0.19548979 -0.96289051
4053250000 -0.20949639 -0.95873904
4083200000 -0.22445385 -0.95586061
4113150000 -0.23371367 -0.95291704
4143100000 -0.24634466 -0.95011032
4173050000 -0.25933266 -0.94592869
4203000000 -0.2694512 -0.94402701
4232950000 -0.28032181 -0.94001335
4262900000 -0.29671851 -0.93470794
4292850000 -0.30810603 -0.93136352
4322800000 -0.31702971 -0.92800933
4352750000 -0.33015311 -0.92372084
4382700000 -0.34252238 -0.91854519
4412650000 -0.35261706 -0.91487986
4442600000 -0.36451641 -0.90850097
4472550000 -0.37894493 -0.90335268
4502500000 -0.38877815 -0.90039986
4532450000 -0.39854699 -0.89439076
4562400000 -0.41073695 -0.88975507
4592350000 -0.42148548 -0.88418829
4622300000 -0.43263638 -0.87697321
4652250000 -0.44672188 -0.87053126
4682200000 -0.45716706 -0.86633033
4712150000 -0.46620062 -0.86205071
4742100000 -0.47771305 -0.85479009
4772050000 -0.48869649 -0.84815711
4802000000 -0.49864498 -0.84226114
4831950000 -0.51036668 -0.83569771
4861900000 -0.52055907 -0.82866448
4891850000 -0.52896047 -0.82456625
4921800000 -0.53881776 -0.81711906
4951750000 -0.55122113 -0.80876601
4981700000 -0.56001115 -0.80185205
5011650000 -0.5698486 -0.79525131
5041600000 -0.58106148 -0.78669047
5071550000 -0.59069723 -0.78111297
5101500000 -0.59799397 -0.77378893
5131450000 -0.61083794 -0.76261246
5161400000 -0.6212582 -0.75490582
5191350000 -0.62757742 -0.7502172
5221300000 -0.63780838 -0.74075544
5251250000 -0.64770937 -0.73074561
5281200000 -0.65603864 -0.72611159
5311150000 -0.66444254 -0.71732706
5341100000 -0.67527258 -0.70685893
5371050000 -0.68384957 -0.69903195
5401000000 -0.69091749 -0.69198918
5430950000 -0.70012641 -0.68238837
5460900000 -0.70904195 -0.67304373
5490850000 -0.71616763 -0.66614324
5520800000 -0.7261095 -0.65476334
5550750000 -0.73407704 -0.64648712
5580700000 -0.74042022 -0.64071065
5610650000 -0.74748743 -0.63072902
5640600000 -0.75617874 -0.61924404
5670550000 -0.76312995 -0.61267114
5700500000 -0.769894 -0.60289764
5730450000 -0.77895081 -0.59033507
5760400000 -0.78602397 -0.58217525
5790350000 -0.79132682 -0.57510388
5820300000 -0.79950976 -0.56143051
5850250000 -0.80734003 -0.55073464
5880200000 -0.81278139 -0.54255259
5910150000 -0.82048345 -0.5313313
5940100000 -0.82693154 -0.52162743
5970050000 -0.83263689 -0.51424879
6000000000 -0.8377198 -0.50398386
