!Keysight Technologies,N5222B,MY58421855,A.13.65.03
!Date: Tuesday, September 29, 2020 17:04:42
!Correction: S11(Full 1 Port(1)) 
!S1P File: Measurement: S11:
# Hz S  RI   R 50
10000000 -0.99678272 0.0037796001
39950000 -1.000127 0.013861755
69900000 -1.0001886 0.024281301
99850000 -0.99931568 0.037875097
129800000 -0.99844527 0.050058905
159750000 -0.99857527 0.05932112
189700000 -0.99743205 0.070394486
219650000 -0.99686313 0.081512019
249600000 -0.99579567 0.090274878
279550000 -0.99560469 0.10085706
309500000 -0.99314743 0.1142364
339450000 -0.99157614 0.12652364
369400000 -0.98998052 0.13739061
399350000 -0.98886263 0.14910619
429300000 -0.98737621 0.1588923
459250000 -0.98537678 0.1696022
489200000 -0.98322964 0.18052535
519150000 -0.98225218 0.19088745
549100000 -0.97981697 0.19931753
579050000 -0.97724044 0.21278986
609000000 -0.97497594 0.2252342
638950000 -0.97251719 0.23579162
668900000 -0.96989924 0.24821253
698850000 -0.9672296 0.25876263
728800000 -0.96404856 0.26651448
758750000 -0.96161503 0.27746621
788700000 -0.95797443 0.28995335
818650000 -0.95435262 0.29922208
848600000 -0.95084959 0.31099844
878550000 -0.94645345 0.32357529
908500000 -0.94371605 0.33296612
938450000 -0.94054908 0.34142908
968400000 -0.93573785 0.35462174
998350000 -0.93195719 0.36483067
1028300000 -0.92817014 0.37262067
1058250000 -0.92371607 0.38396865
1088200000 -0.91912317 0.39700887
1118150000 -0.9149121 0.40536216
1148100000 -0.91045052 0.41583726
1178050000 -0.90395689 0.42937106
1208000000 -0.89971894 0.43844777
1237950000 -0.89529186 0.44743884
1267900000 -0.88990259 0.45775604
1297850000 -0.88589078 0.46693513
1327800000 -0.88107723 0.47681016
1357750000 -0.87424862 0.4872165
1387700000 -0.86791992 0.49794057
1417650000 -0.86325276 0.50616378
1447600000 -0.857077 0.51688373
1477550000 -0.85020304 0.52738154
1507500000 -0.844908 0.53666961
1537450000 -0.83852714 0.5462696
1567400000 -0.83117527 0.55760378
1597350000 -0.82616836 0.56566256
1627300000 -0.82040501 0.57319266
1657250000 -0.8129999 0.58335871
1687200000 -0.80587631 0.59236032
1717150000 -0.7989676 0.60217237
1747100000 -0.79200447 0.61091274
1777050000 -0.78473359 0.62014049
1807000000 -0.77675104 0.62851816
1836950000 -0.77042091 0.63821125
1866900000 -0.7629118 0.6470117
1896850000 -0.75545985 0.65493041
1926800000 -0.7466644 0.66328013
1956750000 -0.73946536 0.67241049
1986700000 -0.73311335 0.67932838
2016650000 -0.72479779 0.68872267
2046600000 -0.71566468 0.69839346
2076550000 -0.70810449 0.70551324
2106500000 -0.70014644 0.71335679
2136450000 -0.69018632 0.72232306
2166400000 -0.68291765 0.72979015
2196350000 -0.67552894 0.73633194
2226300000 -0.66563261 0.7451902
2256250000 -0.6562506 0.75358772
2286200000 -0.64865446 0.75979435
2316150000 -0.63890719 0.76725733
2346100000 -0.62870222 0.77607507
2376050000 -0.62143248 0.78246009
2406000000 -0.61196297 0.78901887
2435950000 -0.6015209 0.79733086
2465900000 -0.59312528 0.8045975
2495850000 -0.58552635 0.80828607
2525800000 -0.57487768 0.81548995
2555750000 -0.56504655 0.82398826
2585700000 -0.55597121 0.82890826
2615650000 -0.54621321 0.83545035
2645600000 -0.53437573 0.8429414
2675550000 -0.52591294 0.84867549
2705500000 -0.51680946 0.85383224
2735450000 -0.5058533 0.85995877
2765400000 -0.49628893 0.86653781
2795350000 -0.48789185 0.87178701
2825300000 -0.47574955 0.8771857
2855250000 -0.46414065 0.88333338
2885200000 -0.4569304 0.88809717
2915150000 -0.44596341 0.89279425
2945100000 -0.4329586 0.90006596
2975050000 -0.42371905 0.90465456
3005000000 -0.41566381 0.90906209
3034950000 -0.40335274 0.91295314
3064900000 -0.39256072 0.91821659
3094850000 -0.3830083 0.92353743
3124800000 -0.37080562 0.92879385
3154750000 -0.36036921 0.93330872
3184700000 -0.35166866 0.93655586
3214650000 -0.34075886 0.94124889
3244600000 -0.32892948 0.94641012
3274550000 -0.31965619 0.95001304
3304500000 -0.3085342 0.95494878
3334450000 -0.29576278 0.95980603
3364400000 -0.28676108 0.96401507
3394350000 -0.2760658 0.96750897
3424300000 -0.26212224 0.97286534
3454250000 -0.25071481 0.97813606
3484200000 -0.23926109 0.98141646
3514150000 -0.22538804 0.98715568
3544100000 -0.21067147 0.99104726
3574050000 -0.19932543 0.99414319
3604000000 -0.18578805 0.99595422
3633950000 -0.17078258 0.9993223
3663900000 -0.15771869 1.0000305
3693850000 -0.14423701 1.001405
3723800000 -0.12819688 1.0017757
3753750000 -0.11637787 1.0025514
3783700000 -0.1045442 1.0020052
3813650000 -0.089948192 1.0026565
3843600000 -0.075237997 1.0037682
3873550000 -0.066424496 1.0024724
3903500000 -0.054472994 1.0021788
3933450000 -0.040449221 1.0022929
3963400000 -0.031374931 1.0020587
3993350000 -0.019028956 1.0009151
4023300000 -0.0041219662 1.0016222
4053250000 0.0058786818 1.0007221
4083200000 0.016080638 0.9994089
4113150000 0.029495345 0.99938929
4143100000 0.042845502 0.99935251
4173050000 0.053604398 0.99798399
4203000000 0.066981584 0.99701846
4232950000 0.079380371 0.99573869
4262900000 0.086932302 0.99454159
4292850000 0.099437714 0.99307871
4322800000 0.11502857 0.9922114
4352750000 0.12651064 0.99074024
4382700000 0.13757844 0.98836792
4412650000 0.15078501 0.98608869
4442600000 0.16093658 0.98567241
4472550000 0.17077431 0.9823041
4502500000 0.18496439 0.98012072
4532450000 0.19757058 0.97743511
4562400000 0.20816316 0.97496438
4592350000 0.2204299 0.97205442
4622300000 0.23278767 0.96993428
4652250000 0.24227609 0.96659243
4682200000 0.25535241 0.96318972
4712150000 0.26922452 0.95919955
4742100000 0.2789979 0.95764524
4772050000 0.29071322 0.95258468
4802000000 0.30289066 0.94964826
4831950000 0.31227288 0.94629872
4861900000 0.32364711 0.94216621
4891850000 0.33801278 0.93668884
4921800000 0.34971762 0.93360305
4951750000 0.35838026 0.93050575
4981700000 0.37185603 0.92494476
5011650000 0.38355488 0.92010492
5041600000 0.39275938 0.91546685
5071550000 0.40498948 0.9104085
5101500000 0.41777727 0.90526462
5131450000 0.42550465 0.90184057
5161400000 0.43459991 0.89595813
5191350000 0.44956529 0.88858646
5221300000 0.46013403 0.88531715
5251250000 0.46860057 0.87929118
5281200000 0.48281452 0.87091321
5311150000 0.49372464 0.8660745
5341100000 0.50247914 0.86178762
5371050000 0.5123595 0.85449135
5401000000 0.52490914 0.84763521
5430950000 0.53286904 0.84309918
5460900000 0.54332107 0.83512795
5490850000 0.55539286 0.82807457
5520800000 0.56364024 0.82328683
5550750000 0.57446712 0.81495494
5580700000 0.58852392 0.80580831
5610650000 0.59761345 0.79963493
5640600000 0.60479581 0.79352874
5670550000 0.61564028 0.7846635
5700500000 0.62592494 0.77752918
5730450000 0.63210815 0.77228075
5760400000 0.64294803 0.76293707
5790350000 0.65495861 0.75361288
5820300000 0.66254747 0.74687612
5850250000 0.67108339 0.73929787
5880200000 0.6814757 0.72941697
5910150000 0.69092971 0.7221325
5940100000 0.69849926 0.71425807
5970050000 0.70819521 0.70366395
6000000000 0.71797889 0.69544095
