! HP8714ES: E.06.01 
! Reflection DATA:
# MHz  S  RI  R 50.0
    0.300  0.0009366352   0.001546019
   15.299 -0.0003516621  -0.0006134591
   30.297 -0.0001059955  -0.0003006419
   45.295 -0.0006107977  -0.0002679579
   60.294 -0.001607378  -0.0003828506
   75.293 -0.002147546  -0.0008097772
   90.291 -0.0001396096   0.0002270129
  105.290 -0.001183813  -0.0009070377
  120.288 -0.0007997378  -0.001341645
  135.286 -0.001119023  -0.001442995
  150.285 -0.0008215538  -0.0007604023
  165.284 -0.002750895  -0.001208071
  180.282 -0.001031285  -0.0004872429
  195.280 -0.001204834  -0.0006863344
  210.279 -0.0007657025  -0.001082152
  225.278 -0.001795391  -0.00209166 
  240.276 -0.001012984  -0.002265342
  255.274  4.07343e-06  -0.0003645188
  270.273 -0.001173658  -0.0001760433
  285.272 -0.001477495  -0.0008337043
  300.270 -0.000899396  -0.0009968844
  315.269 -0.003290463  -0.002582106
  330.267 -0.001276478  -0.001457409
  345.265 -0.001945954  -0.001552384
  360.264 -0.00351833   -0.0008941385
  375.262 -0.002079414  -0.0009361745
  390.261 -0.001216428  -0.001431064
  405.260 -0.001293843  -0.001687018
  420.258 -0.001512526  -0.002223808
  435.257 -0.001719811  -0.002183901
  450.255 -0.002323099  -0.003007147
  465.253 -0.001587879  -0.002560487
  480.252 -0.002744982  -0.001413146
  495.250 -0.002312362  -0.001929945
  510.249 -0.002294744  -0.002784236
  525.247 -0.001889441  -0.003227621
  540.246 -0.0006646006  -0.002154581
  555.245 -0.002303415  -0.002138702
  570.243 -0.002548665  -0.001492567
  585.241 -0.002343554  -0.004269363
  600.240 -0.002010854  -0.001889173
  615.239 -0.001888932  -0.001558211
  630.237 -0.003605439  -0.003117415
  645.236 -0.001766671  -0.002221492
  660.234 -0.001725308  -0.002663565
  675.232 -0.002043223  -0.003318841
  690.231 -0.002069783  -0.003108703
  705.230 -0.002336666  -0.003248514
  720.228 -0.001020343  -0.003604925
  735.226 -0.002827956  -0.003409683
  750.225 -0.001317068  -0.002136715
  765.223 -0.002435863  -0.002768054
  780.222 -0.004086021   0.0002225557
  795.221 -0.002389689  -0.003596397
  810.219 -0.003016805  -0.004148562
  825.217 -0.001794794  -0.003090283
  840.216 -0.002942512  -0.002570737
  855.215 -0.003135242  -0.004828033
  870.213 -0.004012059  -0.004027269
  885.212 -0.003149361  -0.003285756
  900.210 -0.002411198  -0.003886566
  915.208 -0.003434325  -0.002890354
  930.207 -0.003574154  -0.00255989 
  945.206 -0.003694355  -0.003565608
  960.204 -0.002868297  -0.004540021
  975.202 -0.003287873  -0.003349915
  990.201 -0.004179094  -0.003565971
 1005.199 -0.003435747  -0.003309155
 1020.198 -0.00360674   -0.004520647
 1035.197 -0.002329897  -0.004016078
 1050.195 -0.003947488  -0.003437295
 1065.194 -0.003197758  -0.003216925
 1080.192 -0.003555842  -0.003984696
 1095.190 -0.003216854  -0.004862559
 1110.189 -0.003008589  -0.003965655
 1125.188 -0.004026548  -0.00288066 
 1140.186 -0.005154005  -0.002369015
 1155.185 -0.004888985  -0.004749374
 1170.183 -0.004268219  -0.003342297
 1185.181 -0.002677883  -0.003078155
 1200.180 -0.002960759  -0.005012835
 1215.178 -0.003981153  -0.004909161
 1230.177 -0.004068438  -0.004915641
 1245.176 -0.003994369  -0.004161761
 1260.174 -0.003610474  -0.004621029
 1275.172 -0.004409051  -0.003404218
 1290.171 -0.004604765  -0.004590199
 1305.169 -0.003946891  -0.004107584
 1320.168 -0.004542082  -0.004283099
 1335.167 -0.004877475  -0.003250482
 1350.165 -0.004778906  -0.004468877
 1365.164 -0.004252892  -0.004918356
 1380.162 -0.005148227  -0.005183011
 1395.160 -0.004099451  -0.004503942
 1410.159 -0.004503567  -0.005283455
 1425.158 -0.004966419  -0.004748187
 1440.156 -0.005182925  -0.005420163
 1455.155 -0.0049853    -0.004968912
 1470.153 -0.004254724  -0.004017877
 1485.151 -0.004853311  -0.003697456
 1500.150 -0.004143167  -0.004638356
 1515.149 -0.004743697  -0.005269448
 1530.147 -0.00469794   -0.004471235
 1545.146 -0.004968036  -0.005820338
 1560.144 -0.004649915  -0.00380853 
 1575.142 -0.005111242  -0.004762133
 1590.141 -0.004248318  -0.005479705
 1605.139 -0.004294586  -0.004421466
 1620.138 -0.004691366  -0.005734017
 1635.137 -0.004516597  -0.004869106
 1650.135 -0.004676356  -0.004230774
 1665.133 -0.005092966  -0.005527288
 1680.132 -0.005170716  -0.00492253 
 1695.130 -0.005401126  -0.004892035
 1710.129 -0.006138992  -0.004833106
 1725.128 -0.005411898  -0.005744972
 1740.126 -0.006779473  -0.005305736
 1755.124 -0.005975313  -0.00498186 
 1770.123 -0.006577189  -0.004634957
 1785.121 -0.006073678  -0.00524376 
 1800.120 -0.004891464  -0.006356004
 1815.119 -0.005585501  -0.004487188
 1830.117 -0.005713957  -0.0050649  
 1845.116 -0.006018349  -0.004815689
 1860.114 -0.006329564  -0.005628257
 1875.112 -0.0068415    -0.005000802
 1890.111 -0.006340479  -0.005481758
 1905.110 -0.006452264  -0.006064643
 1920.108 -0.0068193    -0.006577785
 1935.107 -0.006600666  -0.00705363 
 1950.105 -0.006206824  -0.006025928
 1965.103 -0.005922408  -0.006959437
 1980.102 -0.007252907  -0.004139036
 1995.101 -0.006347837  -0.005627496
 2010.099 -0.00690622   -0.004914968
 2025.098 -0.00600732   -0.005439689
 2040.096 -0.008000045  -0.006066913
 2055.095 -0.007786277  -0.006460807
 2070.093 -0.008171299  -0.005823656
 2085.091 -0.00810103   -0.006505042
 2100.090 -0.008103353  -0.006175652
 2115.088 -0.007246347  -0.005702763
 2130.087 -0.007995889  -0.006964613
 2145.086 -0.007332198  -0.006109157
 2160.084 -0.006833808  -0.006998472
 2175.082 -0.00791344   -0.006158591
 2190.081 -0.005717918  -0.006646233
 2205.079 -0.008643432  -0.006009143
 2220.078 -0.0060224    -0.007385971
 2235.077 -0.007102191  -0.005783265
 2250.075 -0.007476097  -0.007004345
 2265.073 -0.008916425  -0.006476022
 2280.072 -0.009568471  -0.005535777
 2295.070 -0.009714066  -0.006104316
 2310.069 -0.008168399  -0.006370944
 2325.068 -0.008913858  -0.007058705
 2340.066 -0.009947467  -0.004889339
 2355.064 -0.008041825  -0.006967599
 2370.063 -0.008407337  -0.005444534
 2385.061 -0.00981372   -0.006638937
 2400.060 -0.008869878  -0.007081827
 2415.059 -0.008623545  -0.006527973
 2430.057 -0.008927286  -0.006644182
 2445.055 -0.008762308  -0.008048464
 2460.054 -0.01052283   -0.007007249
 2475.052 -0.009309541  -0.00808378 
 2490.051 -0.01019832   -0.0059764  
 2505.050 -0.00928649   -0.007205502
 2520.048 -0.008125967  -0.006312407
 2535.046 -0.01051863   -0.006464203
 2550.045 -0.009445019  -0.006954834
 2565.044 -0.008552449  -0.00595744 
 2580.042 -0.009243775  -0.005738745
 2595.041 -0.01023701   -0.006298401
 2610.039 -0.01147531   -0.007381782
 2625.037 -0.01057653   -0.007047652
 2640.036 -0.01116385   -0.008480486
 2655.035 -0.01097161   -0.007144235
 2670.033 -0.01052597   -0.006238398
 2685.032 -0.01019311   -0.007245665
 2700.030 -0.01136924   -0.008779858
 2715.028 -0.01054209   -0.006411764
 2730.027 -0.01155612   -0.008846157
 2745.026 -0.01118262   -0.006065908
 2760.024 -0.00987308   -0.00661951 
 2775.023 -0.01171362   -0.007343349
 2790.021 -0.01383598   -0.005086246
 2805.019 -0.01199541   -0.005578695
 2820.018 -0.0124643    -0.006978454
 2835.017 -0.01406275   -0.007941621
 2850.015 -0.01248769   -0.007974251
 2865.014 -0.01294984   -0.008290795
 2880.012 -0.01211595   -0.008641537
 2895.010 -0.01255843   -0.007154529
 2910.009 -0.01200817   -0.008925752
 2925.008 -0.01088937   -0.007672232
 2940.006 -0.01185859   -0.007735679
 2955.005 -0.01254679   -0.007142058
 2970.003 -0.01313267   -0.006517172
 2985.001 -0.01465283   -0.006880697
 3000.000 -0.01482523   -0.006449726
