! HP8714ES: E.06.01 
! Reflection DATA:
# MHz  S  RI  R 50.0
    0.300  0.9961854    -0.003126132
   15.299  1.000447     -0.01334797 
   30.297  0.9996467    -0.02458256 
   45.295  1.003        -0.0342176  
   60.294  0.9999001    -0.04620068 
   75.293  0.9983261    -0.05350687 
   90.291  0.9990045    -0.05379771 
  105.290  0.9995315    -0.07453084 
  120.288  0.9984637    -0.08117726 
  135.286  0.9967899    -0.08865906 
  150.285  0.9986995    -0.1010828  
  165.284  0.9949313    -0.1137161  
  180.282  0.9940034    -0.1271693  
  195.280  0.9925537    -0.135809   
  210.279  0.9888889    -0.1319829  
  225.278  0.9889348    -0.1502228  
  240.276  0.9853415    -0.1662332  
  255.274  0.9860203    -0.1736813  
  270.273  0.9835843    -0.1841479  
  285.272  0.9791784    -0.1950072  
  300.270  0.9786369    -0.1982688  
  315.269  0.9780642    -0.2172568  
  330.267  0.9802377    -0.217936   
  345.265  0.9733757    -0.237433   
  360.264  0.9697623    -0.2473463  
  375.262  0.9677172    -0.2484246  
  390.261  0.9615962    -0.2719673  
  405.260  0.9628718    -0.2797922  
  420.258  0.9601181    -0.2876928  
  435.257  0.9578499    -0.2906528  
  450.255  0.9532592    -0.3069507  
  465.253  0.9507959    -0.3172775  
  480.252  0.949541     -0.322627   
  495.250  0.9435968    -0.3376048  
  510.249  0.9394368    -0.3517676  
  525.247  0.9371427    -0.3550386  
  540.246  0.9295838    -0.3690469  
  555.245  0.9274751    -0.3755005  
  570.243  0.9264141    -0.3803939  
  585.241  0.9184755    -0.3983638  
  600.240  0.9137577    -0.4063724  
  615.239  0.913421     -0.4039901  
  630.237  0.9080365    -0.4224844  
  645.236  0.9074695    -0.4225746  
  660.234  0.9011609    -0.4358265  
  675.232  0.8938884    -0.4563045  
  690.231  0.8867437    -0.46021    
  705.230  0.8831741    -0.4723889  
  720.228  0.882438     -0.475527   
  735.226  0.8744119    -0.4838048  
  750.225  0.8682983    -0.4961547  
  765.223  0.8642006    -0.5019783  
  780.222  0.8602644    -0.5142808  
  795.221  0.8456791    -0.5300558  
  810.219  0.8497238    -0.5320079  
  825.217  0.8397833    -0.5403549  
  840.216  0.8360643    -0.5508895  
  855.215  0.8340831    -0.5541924  
  870.213  0.8292806    -0.5627276  
  885.212  0.8179979    -0.5792321  
  900.210  0.8067896    -0.5892439  
  915.208  0.809985     -0.5896501  
  930.207  0.8004408    -0.5982373  
  945.206  0.7959945    -0.6059046  
  960.204  0.7908238    -0.6101456  
  975.202  0.7857081    -0.6169497  
  990.201  0.7795358    -0.6240252  
 1005.199  0.7713849    -0.6346972  
 1020.198  0.7647511    -0.6418958  
 1035.197  0.7586692    -0.6496558  
 1050.195  0.7478144    -0.658421   
 1065.194  0.7424958    -0.6700691  
 1080.192  0.7342333    -0.676933   
 1095.190  0.7261314    -0.6834696  
 1110.189  0.7205841    -0.6926312  
 1125.188  0.7186936    -0.6961179  
 1140.186  0.7047048    -0.7070973  
 1155.185  0.6969129    -0.7140607  
 1170.183  0.6952781    -0.7157831  
 1185.181  0.6769533    -0.7331995  
 1200.180  0.6758164    -0.7365019  
 1215.178  0.6757347    -0.7369185  
 1230.177  0.6662821    -0.7476574  
 1245.176  0.6516239    -0.7593701  
 1260.174  0.6473146    -0.7570083  
 1275.172  0.6392895    -0.7698867  
 1290.171  0.6292682    -0.7730831  
 1305.169  0.6225561    -0.7819397  
 1320.168  0.6160291    -0.7882146  
 1335.167  0.6096672    -0.7900366  
 1350.165  0.595715     -0.8064089  
 1365.164  0.5895404    -0.8045988  
 1380.162  0.5809588    -0.8128679  
 1395.160  0.574536     -0.8159392  
 1410.159  0.5645167    -0.825689   
 1425.158  0.5533454    -0.8341966  
 1440.156  0.5422562    -0.838609   
 1455.155  0.526314     -0.8469371  
 1470.153  0.5311564    -0.848208   
 1485.151  0.5158511    -0.8539717  
 1500.150  0.5015369    -0.8633629  
 1515.149  0.5035075    -0.8623226  
 1530.147  0.4851497    -0.8740143  
 1545.146  0.4825264    -0.8760549  
 1560.144  0.4726862    -0.8800663  
 1575.142  0.4633588    -0.8858438  
 1590.141  0.450208     -0.8921365  
 1605.139  0.4456021    -0.8926799  
 1620.138  0.4337533    -0.8966476  
 1635.137  0.4283466    -0.8992445  
 1650.135  0.4150933    -0.9067957  
 1665.133  0.4064865    -0.9126393  
 1680.132  0.3966624    -0.9179887  
 1695.130  0.3897587    -0.920491   
 1710.129  0.3772405    -0.9226257  
 1725.128  0.3684294    -0.927445   
 1740.126  0.3561131    -0.9324218  
 1755.124  0.3542577    -0.9319153  
 1770.123  0.3368065    -0.9371945  
 1785.121  0.3341851    -0.9373274  
 1800.120  0.3253674    -0.9466641  
 1815.119  0.3118076    -0.9481753  
 1830.117  0.3010372    -0.9529885  
 1845.116  0.2951574    -0.9526441  
 1860.114  0.2795676    -0.961071   
 1875.112  0.2697229    -0.9603496  
 1890.111  0.2606927    -0.9615142  
 1905.110  0.2507741    -0.9661227  
 1920.108  0.2438569    -0.9676855  
 1935.107  0.2305567    -0.9698697  
 1950.105  0.224744     -0.9689394  
 1965.103  0.2162566    -0.9733974  
 1980.102  0.2041138    -0.9761921  
 1995.101  0.1933157    -0.9770904  
 2010.099  0.1810086    -0.977618   
 2025.098  0.1678437    -0.9811817  
 2040.096  0.1590466    -0.9832392  
 2055.095  0.1546777    -0.986056   
 2070.093  0.140232     -0.9857222  
 2085.091  0.1296465    -0.9870714  
 2100.090  0.1167508    -0.9882606  
 2115.088  0.1099087    -0.9906803  
 2130.087  0.1009242    -0.9906474  
 2145.086  0.09015752   -0.9947402  
 2160.084  0.08095044   -0.9945652  
 2175.082  0.06611165   -0.9962726  
 2190.081  0.06137887   -0.9938749  
 2205.079  0.04708049   -0.9924484  
 2220.078  0.03808466   -0.9937798  
 2235.077  0.0272958    -0.9937409  
 2250.075  0.01424021   -0.9962574  
 2265.073  0.006408125  -0.9942064  
 2280.072 -0.003114045  -0.9955741  
 2295.070 -0.0143517    -0.9947382  
 2310.069 -0.02472132   -0.997178   
 2325.068 -0.03840955   -0.9937049  
 2340.066 -0.04672594   -0.9976977  
 2355.064 -0.05703324   -0.9937915  
 2370.063 -0.06628904   -0.9925366  
 2385.061 -0.07593653   -0.9906727  
 2400.060 -0.08755603   -0.9915231  
 2415.059 -0.09821935   -0.989404   
 2430.057 -0.1081619    -0.9899755  
 2445.055 -0.1153615    -0.9880248  
 2460.054 -0.1267342    -0.9874951  
 2475.052 -0.1346962    -0.9869837  
 2490.051 -0.1480839    -0.9837103  
 2505.050 -0.1549166    -0.9823145  
 2520.048 -0.167211     -0.9776902  
 2535.046 -0.176809     -0.9761165  
 2550.045 -0.1835219    -0.9775459  
 2565.044 -0.1929808    -0.9724981  
 2580.042 -0.2075871    -0.9709387  
 2595.041 -0.2163427    -0.9708509  
 2610.039 -0.2267221    -0.9660425  
 2625.037 -0.2412512    -0.9637948  
 2640.036 -0.246092     -0.9619129  
 2655.035 -0.2586675    -0.9579217  
 2670.033 -0.2669268    -0.9572981  
 2685.032 -0.2816673    -0.9573539  
 2700.030 -0.2893575    -0.9486057  
 2715.028 -0.2964509    -0.9466073  
 2730.027 -0.307662     -0.9424454  
 2745.026 -0.3180498    -0.9405255  
 2760.024 -0.3238194    -0.9376917  
 2775.023 -0.3419704    -0.9314805  
 2790.021 -0.3481752    -0.9284413  
 2805.019 -0.3510575    -0.9303203  
 2820.018 -0.3709912    -0.9230908  
 2835.017 -0.3760513    -0.9209715  
 2850.015 -0.3866011    -0.9171986  
 2865.014 -0.3944984    -0.9104791  
 2880.012 -0.4038717    -0.9058323  
 2895.010 -0.4130009    -0.9000349  
 2910.009 -0.4212403    -0.899459   
 2925.008 -0.4269708    -0.8945231  
 2940.006 -0.4421067    -0.883881   
 2955.005 -0.4526343    -0.8799585  
 2970.003 -0.4600071    -0.8754461  
 2985.001 -0.4681666    -0.8740853  
 3000.000 -0.4758863    -0.8708867  
