! HP8714ES: E.06.01 
! Reflection DATA:
# MHz  S  RI  R 50.0
    0.300 -0.993998      0.00583277 
   15.299 -0.9997354     0.01697297 
   30.297 -1.000637      0.02210058 
   45.295 -1.002934      0.02547116 
   60.294 -1.001973      0.03863123 
   75.293 -0.9971578     0.05257678 
   90.291 -0.999709      0.05861708 
  105.290 -0.9991531     0.07512119 
  120.288 -0.9987011     0.08112219 
  135.286 -0.9971943     0.09237307 
  150.285 -0.9980313     0.09796655 
  165.284 -0.995957      0.1041351  
  180.282 -0.9936759     0.1167988  
  195.280 -0.9895054     0.1275958  
  210.279 -0.994101      0.1306767  
  225.278 -0.9895779     0.1537924  
  240.276 -0.9908817     0.154476   
  255.274 -0.9844093     0.1712867  
  270.273 -0.9848159     0.1772454  
  285.272 -0.9846193     0.1780247  
  300.270 -0.9849224     0.1993511  
  315.269 -0.9815368     0.2082003  
  330.267 -0.9825807     0.2120684  
  345.265 -0.9786695     0.2236101  
  360.264 -0.9739234     0.2419671  
  375.262 -0.9747045     0.2386927  
  390.261 -0.9709271     0.2532221  
  405.260 -0.9705358     0.2603624  
  420.258 -0.9663656     0.2770184  
  435.257 -0.9660795     0.2830541  
  450.255 -0.964675      0.291266   
  465.253 -0.9581795     0.3015039  
  480.252 -0.9536878     0.3147701  
  495.250 -0.9485698     0.3282887  
  510.249 -0.9493055     0.3296777  
  525.247 -0.9467901     0.3387566  
  540.246 -0.9399179     0.3493612  
  555.245 -0.9360465     0.3647596  
  570.243 -0.9370927     0.3629322  
  585.241 -0.928924      0.3726771  
  600.240 -0.9297534     0.3884839  
  615.239 -0.9214328     0.4003935  
  630.237 -0.919028      0.4099069  
  645.236 -0.9149547     0.4192232  
  660.234 -0.9103664     0.4253117  
  675.232 -0.9071044     0.4309193  
  690.231 -0.9005072     0.4451462  
  705.230 -0.893522      0.4586537  
  720.228 -0.8953446     0.4580439  
  735.226 -0.8877612     0.4715577  
  750.225 -0.8852448     0.4763465  
  765.223 -0.8826889     0.4877106  
  780.222 -0.8729292     0.5014874  
  795.221 -0.8619956     0.5151715  
  810.219 -0.8658414     0.5135706  
  825.217 -0.8605416     0.5230717  
  840.216 -0.8524128     0.5303253  
  855.215 -0.851932      0.5310836  
  870.213 -0.8427691     0.548604   
  885.212 -0.8429127     0.5524321  
  900.210 -0.833916      0.5602334  
  915.208 -0.824914      0.5752901  
  930.207 -0.8254578     0.5772863  
  945.206 -0.8153504     0.5898014  
  960.204 -0.8080851     0.6019443  
  975.202 -0.798916      0.6074995  
  990.201 -0.7888726     0.6232921  
 1005.199 -0.793952      0.6224012  
 1020.198 -0.7846419     0.6320366  
 1035.197 -0.7799887     0.635989   
 1050.195 -0.7674522     0.6505421  
 1065.194 -0.7679163     0.6502679  
 1080.192 -0.7587962     0.6632788  
 1095.190 -0.7557913     0.6656924  
 1110.189 -0.740774      0.6833134  
 1125.188 -0.7447529     0.6778316  
 1140.186 -0.7304112     0.6942323  
 1155.185 -0.7259102     0.6996057  
 1170.183 -0.7220324     0.7051873  
 1185.181 -0.7096565     0.7139087  
 1200.180 -0.7036153     0.7179016  
 1215.178 -0.6966758     0.7302783  
 1230.177 -0.6882514     0.7333633  
 1245.176 -0.6791334     0.7386069  
 1260.174 -0.678859      0.7427368  
 1275.172 -0.6748334     0.7500629  
 1290.171 -0.6625142     0.7622769  
 1305.169 -0.6576142     0.7637578  
 1320.168 -0.6462116     0.7716385  
 1335.167 -0.6327317     0.78711    
 1350.165 -0.627663      0.788767   
 1365.164 -0.6300462     0.7881233  
 1380.162 -0.6148442     0.8013799  
 1395.160 -0.6088712     0.8050667  
 1410.159 -0.6031927     0.8113483  
 1425.158 -0.5988755     0.8110993  
 1440.156 -0.5830676     0.8239625  
 1455.155 -0.5764109     0.8338619  
 1470.153 -0.5653524     0.829971   
 1485.151 -0.5606858     0.8413593  
 1500.150 -0.5486819     0.8488791  
 1515.149 -0.5439996     0.8542808  
 1530.147 -0.5333873     0.8578822  
 1545.146 -0.5241928     0.8597147  
 1560.144 -0.5124109     0.8693314  
 1575.142 -0.5104569     0.8710371  
 1590.141 -0.4994061     0.8757606  
 1605.139 -0.4844643     0.886531   
 1620.138 -0.4839014     0.8883979  
 1635.137 -0.4724555     0.8918971  
 1650.135 -0.4641587     0.897122   
 1665.133 -0.4572752     0.8987203  
 1680.132 -0.4513598     0.9017256  
 1695.130 -0.4371846     0.9101415  
 1710.129 -0.4256823     0.9199418  
 1725.128 -0.4172805     0.9199396  
 1740.126 -0.4112161     0.9235735  
 1755.124 -0.3966205     0.9265105  
 1770.123 -0.3910806     0.933071   
 1785.121 -0.3791398     0.9398702  
 1800.120 -0.3687649     0.9377159  
 1815.119 -0.3651438     0.9433463  
 1830.117 -0.3578276     0.9439822  
 1845.116 -0.3427941     0.9490292  
 1860.114 -0.3371139     0.9497267  
 1875.112 -0.3308334     0.9553212  
 1890.111 -0.3191486     0.9588166  
 1905.110 -0.3041531     0.9639508  
 1920.108 -0.3024336     0.9660765  
 1935.107 -0.2873897     0.9686991  
 1950.105 -0.2820053     0.9739882  
 1965.103 -0.2695431     0.9772473  
 1980.102 -0.2604253     0.9787022  
 1995.101 -0.2516866     0.9805148  
 2010.099 -0.2440233     0.9829038  
 2025.098 -0.2293945     0.9874079  
 2040.096 -0.2296544     0.9871467  
 2055.095 -0.2127226     0.9918023  
 2070.093 -0.2018283     0.9928932  
 2085.091 -0.1907781     0.9963439  
 2100.090 -0.1829889     0.9995376  
 2115.088 -0.1700866     0.9989369  
 2130.087 -0.161027      1.001448   
 2145.086 -0.1488543     1.000938   
 2160.084 -0.13973       1.004978   
 2175.082 -0.1295568     1.004686   
 2190.081 -0.1190623     1.008543   
 2205.079 -0.1075326     1.01305    
 2220.078 -0.09552383    1.01058    
 2235.077 -0.09007812    1.014561   
 2250.075 -0.07689774    1.013392   
 2265.073 -0.07196483    1.014513   
 2280.072 -0.06014134    1.018759   
 2295.070 -0.04449888    1.014161   
 2310.069 -0.0342066     1.013787   
 2325.068 -0.02570969    1.01602    
 2340.066 -0.01950812    1.014699   
 2355.064 -0.004649162   1.016326   
 2370.063  0.005324304   1.017945   
 2385.061  0.01645117    1.019497   
 2400.060  0.02485161    1.019465   
 2415.059  0.03879049    1.017971   
 2430.057  0.04567845    1.018768   
 2445.055  0.05116062    1.016304   
 2460.054  0.06427042    1.014712   
 2475.052  0.07373087    1.012147   
 2490.051  0.08164628    1.014341   
 2505.050  0.09871013    1.012443   
 2520.048  0.1096568     1.014389   
 2535.046  0.1198916     1.010685   
 2550.045  0.1234232     1.009958   
 2565.044  0.1377143     1.013489   
 2580.042  0.1464736     1.008968   
 2595.041  0.154771      1.005711   
 2610.039  0.166826      1.005987   
 2625.037  0.1783679     1.001809   
 2640.036  0.186528      1.002377   
 2655.035  0.1971588     1.000695   
 2670.033  0.2095897     0.9974903  
 2685.032  0.2139971     0.9931499  
 2700.030  0.2252463     0.9910865  
 2715.028  0.2372349     0.991379   
 2730.027  0.249914      0.9863453  
 2745.026  0.2595375     0.988185   
 2760.024  0.26735       0.9890205  
 2775.023  0.2766784     0.9796824  
 2790.021  0.2870644     0.9824821  
 2805.019  0.3019689     0.9747226  
 2820.018  0.3056508     0.9712247  
 2835.017  0.3169084     0.9663786  
 2850.015  0.3206497     0.9681798  
 2865.014  0.3359267     0.9637133  
 2880.012  0.3476515     0.9588035  
 2895.010  0.3578311     0.959022   
 2910.009  0.360325      0.9540141  
 2925.008  0.3761221     0.9480156  
 2940.006  0.3875882     0.946499   
 2955.005  0.3972214     0.9403563  
 2970.003  0.3982618     0.9421089  
 2985.001  0.4047208     0.9377475  
 3000.000  0.4106261     0.934297   
